T1BFC 4487:345 SEGGER J-Link V4.98e Log File (0001ms, 6426ms total)
T1BFC 4487:345 DLL Compiled: May  5 2015 11:00:52 (0001ms, 6426ms total)
T1BFC 4487:345 Logging started @ 2015-06-16 13:36 (0001ms, 6426ms total)
T1BFC 4487:372 JLINK_ExecCommand("Device = ATSAMV71Q21", ...)Device "ATSAMV71Q21" selected.  returns 0x00 (0000ms, 6426ms total)
T1BFC 4491:348 JLINK_ExecCommand("ProjectFile = C:\E\Dev\FreeRTOS\WorkingCopy\FreeRTOS\Demo\CORTEX_M7_SAMV71_Xplained_AtmelStudio\jlink.config", ...)Device "UNSPECIFIED" selected.  returns 0x00 (0000ms, 6426ms total)
T1BFC 4491:374 JLINK_ExecCommand("Device = ATSAMV71Q21", ...)Device "ATSAMV71Q21" selected.  returns 0x00 (0001ms, 6427ms total)
T1BFC 4491:375 JLINK_TIF_Select(JLINKARM_TIF_SWD)  returns 0x00 (0004ms, 6431ms total)
T1BFC 4491:379 JLINK_SetSpeed(1000) (0001ms, 6432ms total)
T1BFC 4491:380 JLINK_ResetPullsRESET(OFF) (0000ms, 6432ms total)
T1BFC 4491:380 JLINK_Connect() >0x108 TIF>Found SWD-DP with ID 0x0BD11477 >0x0D TIF> >0x21 TIF> >0x0D TIF> >0x28 TIF> >0x0D TIF> >0x28 TIF> >0x0D TIF> >0x21 TIF> >0x0D TIF> >0x28 TIF> >0x0D TIF> >0x21 TIF> >0x0D TIF> >0x21 TIF> >0x0D TIF> >0x21 TIF> >0x0D TIF> >0x28 TIF> >0x0D TIF> >0x28 TIF> >0x0D TIF> >0x28 TIF> >0x0D TIF> >0x21 TIF> >0x0D TIF> >0x21 TIF> >0x0D TIF> >0x28 TIF> >0x0D TIF> >0x21 TIF> >0x0D TIF> >0x21 TIF> >0x0D TIF> >0x21 TIF> >0x0D TIF> >0x21 TIF> >0x0D TIF> >0x21 TIF> >0x0D TIF>
 >0x28 TIF> >0x0D TIF> >0x21 TIF> >0x0D TIF> >0x21 TIF> >0x0D TIF> >0x21 TIF> >0x0D TIF> >0x28 TIF> >0x0D TIF> >0x28 TIF> >0x0D TIF> >0x21 TIF> >0x0D TIF> >0x28 TIF> >0x0D TIF> >0x28 TIF> >0x0D TIF> >0x28 TIF> >0x0D TIF> >0x21 TIF> >0x0D TIF> >0x21 TIF> >0x0D TIF> >0x28 TIF> >0x0D TIF> >0x21 TIF> >0x0D TIF> >0x21 TIF>Found Cortex-M7 r0p1, Little endian. -- CPU_WriteMem(4 bytes @ 0xE0002000) -- CPU_ReadMem(4 bytes @ 0xE000EDF0) -- CPU_ReadMem(4 bytes @ 0xE0002000)
FPUnit: 8 code (BP) slots and 0 literal slots -- CPU_ReadMem(4 bytes @ 0xE000EDFC) -- CPU_ReadMem(4 bytes @ 0xE0001000) -- CPU_WriteMem(4 bytes @ 0xE0001000) -- CPU_ReadMem(4 bytes @ 0xE000ED88) -- CPU_WriteMem(4 bytes @ 0xE000ED88) -- CPU_ReadMem(4 bytes @ 0xE000ED88) -- CPU_WriteMem(4 bytes @ 0xE000ED88)CoreSight components:ROMTbl 0 @ E00FD000 -- CPU_ReadMem(16 bytes @ 0xE00FD000) -- CPU_ReadMem(16 bytes @ 0xE00FEFF0) -- CPU_ReadMem(16 bytes @ 0xE00FEFE0)
ROMTbl 0 [0]: 00001000, CID: B105100D, PID: 000BB4C8 ROM TableROMTbl 1 @ E00FE000 -- CPU_ReadMem(16 bytes @ 0xE00FE000) -- CPU_ReadMem(16 bytes @ 0xE00FFFF0) -- CPU_ReadMem(16 bytes @ 0xE00FFFE0)ROMTbl 1 [0]: 00001000, CID: B105100D, PID: 000BB4C7 ROM TableROMTbl 2 @ E00FF000 -- CPU_ReadMem(16 bytes @ 0xE00FF000) -- CPU_ReadMem(16 bytes @ 0xE000EFF0) -- CPU_ReadMem(16 bytes @ 0xE000EFE0)ROMTbl 2 [0]: FFF0F000, CID: B105E00D, PID: 000BB00C SCS -- CPU_ReadMem(16 bytes @ 0xE0001FF0)
 -- CPU_ReadMem(16 bytes @ 0xE0001FE0)ROMTbl 2 [1]: FFF02000, CID: B105E00D, PID: 000BB002 DWT -- CPU_ReadMem(16 bytes @ 0xE0002FF0) -- CPU_ReadMem(16 bytes @ 0xE0002FE0)ROMTbl 2 [2]: FFF03000, CID: B105E00D, PID: 000BB00E FPB -- CPU_ReadMem(16 bytes @ 0xE0000FF0) -- CPU_ReadMem(16 bytes @ 0xE0000FE0)ROMTbl 2 [3]: FFF01000, CID: B105E00D, PID: 000BB001 ITM -- CPU_ReadMem(16 bytes @ 0xE00FF010) -- CPU_ReadMem(16 bytes @ 0xE0041FF0) -- CPU_ReadMem(16 bytes @ 0xE0041FE0)
ROMTbl 1 [1]: FFF43000, CID: B105900D, PID: 000BB975 ETM-M7 -- CPU_ReadMem(16 bytes @ 0xE00FE010) -- CPU_ReadMem(16 bytes @ 0xE0040FF0) -- CPU_ReadMem(16 bytes @ 0xE0040FE0)ROMTbl 0 [1]: FFF43000, CID: B105900D, PID: 000BB9A9 TPIU-M7 -- CPU_ReadMem(16 bytes @ 0xE00FD010) -- CPU_ReadMem(4 bytes @ 0xE000ED78) -- CPU_WriteMem(4 bytes @ 0xE000ED84) -- CPU_ReadMem(4 bytes @ 0xE000ED80)I-Cache L1: 16 KB, 256 Sets, 32 Bytes/Line, 2-Way -- CPU_WriteMem(4 bytes @ 0xE000ED84) -- CPU_ReadMem(4 bytes @ 0xE000ED80)
D-Cache L1: 16 KB, 128 Sets, 32 Bytes/Line, 4-Way  returns 0x00 (0113ms, 6545ms total)
T1BFC 4491:493 JLINK_GetDebugInfo(0x100) -- Value=0xE00FD003  returns 0x00 (0001ms, 6546ms total)
T1BFC 4491:494 JLINK_ReadMem (0xE00FDFF0, 0x0010 Bytes, ...) -- CPU is running -- CPU_ReadMem(16 bytes @ 0xE00FDFF0) - Data: 0D 00 00 00 10 00 00 00 05 00 00 00 B1 00 00 00  returns 0x00 (0001ms, 6547ms total)
T1BFC 4491:495 JLINK_ReadMem (0xE00FDFD0, 0x0020 Bytes, ...) -- CPU is running -- CPU_ReadMem(32 bytes @ 0xE00FDFD0) - Data: 00 00 00 00 00 00 00 00 00 00 00 00 00 00 00 00 ...  returns 0x00 (0001ms, 6548ms total)
T1BFC 4491:496 JLINK_ReadMemU32(0xE00FD000, 0x0001 Items, ...) -- CPU is running -- CPU_ReadMem(4 bytes @ 0xE00FD000) - Data: 03 10 00 00  returns 0x01 (0001ms, 6549ms total)
T1BFC 4491:497 JLINK_ReadMem (0xE00FEFF0, 0x0010 Bytes, ...) -- CPU is running -- CPU_ReadMem(16 bytes @ 0xE00FEFF0) - Data: 0D 00 00 00 10 00 00 00 05 00 00 00 B1 00 00 00  returns 0x00 (0001ms, 6550ms total)
T1BFC 4491:498 JLINK_ReadMem (0xE00FEFD0, 0x0020 Bytes, ...) -- CPU is running -- CPU_ReadMem(32 bytes @ 0xE00FEFD0) - Data: 04 00 00 00 00 00 00 00 00 00 00 00 00 00 00 00 ...  returns 0x00 (0001ms, 6551ms total)
T1BFC 4491:499 JLINK_ReadMemU32(0xE00FE000, 0x0001 Items, ...) -- CPU is running -- CPU_ReadMem(4 bytes @ 0xE00FE000) - Data: 03 10 00 00  returns 0x01 (0001ms, 6552ms total)
T1BFC 4491:500 JLINK_ReadMem (0xE00FFFF0, 0x0010 Bytes, ...) -- CPU is running -- CPU_ReadMem(16 bytes @ 0xE00FFFF0) - Data: 0D 00 00 00 10 00 00 00 05 00 00 00 B1 00 00 00  returns 0x00 (0001ms, 6553ms total)
T1BFC 4491:501 JLINK_ReadMem (0xE00FFFD0, 0x0020 Bytes, ...) -- CPU is running -- CPU_ReadMem(32 bytes @ 0xE00FFFD0) - Data: 04 00 00 00 00 00 00 00 00 00 00 00 00 00 00 00 ...  returns 0x00 (0001ms, 6554ms total)
T1BFC 4491:502 JLINK_ReadMemU32(0xE00FF000, 0x0001 Items, ...) -- CPU is running -- CPU_ReadMem(4 bytes @ 0xE00FF000) - Data: 03 F0 F0 FF  returns 0x01 (0001ms, 6555ms total)
T1BFC 4491:503 JLINK_ReadMem (0xE000EFF0, 0x0010 Bytes, ...) -- CPU is running -- CPU_ReadMem(16 bytes @ 0xE000EFF0) - Data: 0D 00 00 00 E0 00 00 00 05 00 00 00 B1 00 00 00  returns 0x00 (0001ms, 6556ms total)
T1BFC 4491:504 JLINK_ReadMem (0xE000EFD0, 0x0020 Bytes, ...) -- CPU is running -- CPU_ReadMem(32 bytes @ 0xE000EFD0) - Data: 04 00 00 00 00 00 00 00 00 00 00 00 00 00 00 00 ...  returns 0x00 (0001ms, 6557ms total)
T1BFC 4491:505 JLINK_ReadMemU32(0xE00FF004, 0x0001 Items, ...) -- CPU is running -- CPU_ReadMem(4 bytes @ 0xE00FF004) - Data: 03 20 F0 FF  returns 0x01 (0001ms, 6558ms total)
T1BFC 4491:506 JLINK_ReadMem (0xE0001FF0, 0x0010 Bytes, ...) -- CPU is running -- CPU_ReadMem(16 bytes @ 0xE0001FF0) - Data: 0D 00 00 00 E0 00 00 00 05 00 00 00 B1 00 00 00  returns 0x00 (0001ms, 6559ms total)
T1BFC 4491:507 JLINK_ReadMem (0xE0001FD0, 0x0020 Bytes, ...) -- CPU is running -- CPU_ReadMem(32 bytes @ 0xE0001FD0) - Data: 04 00 00 00 00 00 00 00 00 00 00 00 00 00 00 00 ...  returns 0x00 (0001ms, 6560ms total)
T1BFC 4491:508 JLINK_ReadMemU32(0xE00FF008, 0x0001 Items, ...) -- CPU is running -- CPU_ReadMem(4 bytes @ 0xE00FF008) - Data: 03 30 F0 FF  returns 0x01 (0001ms, 6561ms total)
T1BFC 4491:509 JLINK_ReadMem (0xE0002FF0, 0x0010 Bytes, ...) -- CPU is running -- CPU_ReadMem(16 bytes @ 0xE0002FF0) - Data: 0D 00 00 00 E0 00 00 00 05 00 00 00 B1 00 00 00  returns 0x00 (0001ms, 6562ms total)
T1BFC 4491:510 JLINK_ReadMem (0xE0002FD0, 0x0020 Bytes, ...) -- CPU is running -- CPU_ReadMem(32 bytes @ 0xE0002FD0) - Data: 04 00 00 00 00 00 00 00 00 00 00 00 00 00 00 00 ...  returns 0x00 (0001ms, 6563ms total)
T1BFC 4491:511 JLINK_ReadMemU32(0xE00FF00C, 0x0001 Items, ...) -- CPU is running -- CPU_ReadMem(4 bytes @ 0xE00FF00C) - Data: 03 10 F0 FF  returns 0x01 (0001ms, 6564ms total)
T1BFC 4491:512 JLINK_ReadMem (0xE0000FF0, 0x0010 Bytes, ...) -- CPU is running -- CPU_ReadMem(16 bytes @ 0xE0000FF0) - Data: 0D 00 00 00 E0 00 00 00 05 00 00 00 B1 00 00 00  returns 0x00 (0001ms, 6565ms total)
T1BFC 4491:513 JLINK_ReadMem (0xE0000FD0, 0x0020 Bytes, ...) -- CPU is running -- CPU_ReadMem(32 bytes @ 0xE0000FD0) - Data: 04 00 00 00 00 00 00 00 00 00 00 00 00 00 00 00 ...  returns 0x00 (0001ms, 6566ms total)
T1BFC 4491:514 JLINK_ReadMemU32(0xE00FF010, 0x0001 Items, ...) -- CPU is running -- CPU_ReadMem(4 bytes @ 0xE00FF010) - Data: 02 10 F4 FF  returns 0x01 (0001ms, 6567ms total)
T1BFC 4491:515 JLINK_ReadMemU32(0xE00FF014, 0x0001 Items, ...) -- CPU is running -- CPU_ReadMem(4 bytes @ 0xE00FF014) - Data: 02 20 F4 FF  returns 0x01 (0001ms, 6568ms total)
T1BFC 4491:516 JLINK_ReadMemU32(0xE00FF018, 0x0001 Items, ...) -- CPU is running -- CPU_ReadMem(4 bytes @ 0xE00FF018) - Data: 00 00 00 00  returns 0x01 (0001ms, 6569ms total)
T1BFC 4491:517 JLINK_ReadMemU32(0xE00FE004, 0x0001 Items, ...) -- CPU is running -- CPU_ReadMem(4 bytes @ 0xE00FE004) - Data: 03 30 F4 FF  returns 0x01 (0001ms, 6570ms total)
T1BFC 4491:518 JLINK_ReadMem (0xE0041FF0, 0x0010 Bytes, ...) -- CPU is running -- CPU_ReadMem(16 bytes @ 0xE0041FF0) - Data: 0D 00 00 00 90 00 00 00 05 00 00 00 B1 00 00 00  returns 0x00 (0001ms, 6571ms total)
T1BFC 4491:519 JLINK_ReadMem (0xE0041FD0, 0x0020 Bytes, ...) -- CPU is running -- CPU_ReadMem(32 bytes @ 0xE0041FD0) - Data: 04 00 00 00 00 00 00 00 00 00 00 00 00 00 00 00 ...  returns 0x00 (0001ms, 6572ms total)
T1BFC 4491:520 JLINK_ReadMemU32(0xE00FE008, 0x0001 Items, ...) -- CPU is running -- CPU_ReadMem(4 bytes @ 0xE00FE008) - Data: 02 40 F4 FF  returns 0x01 (0001ms, 6573ms total)
T1BFC 4491:521 JLINK_ReadMemU32(0xE00FE00C, 0x0001 Items, ...) -- CPU is running -- CPU_ReadMem(4 bytes @ 0xE00FE00C) - Data: 02 20 F0 1F  returns 0x01 (0001ms, 6574ms total)
T1BFC 4491:522 JLINK_ReadMemU32(0xE00FE010, 0x0001 Items, ...) -- CPU is running -- CPU_ReadMem(4 bytes @ 0xE00FE010) - Data: 00 00 00 00  returns 0x01 (0001ms, 6575ms total)
T1BFC 4491:523 JLINK_ReadMemU32(0xE00FD004, 0x0001 Items, ...) -- CPU is running -- CPU_ReadMem(4 bytes @ 0xE00FD004) - Data: 03 30 F4 FF  returns 0x01 (0001ms, 6576ms total)
T1BFC 4491:524 JLINK_ReadMem (0xE0040FF0, 0x0010 Bytes, ...) -- CPU is running -- CPU_ReadMem(16 bytes @ 0xE0040FF0) - Data: 0D 00 00 00 90 00 00 00 05 00 00 00 B1 00 00 00  returns 0x00 (0000ms, 6576ms total)
T1BFC 4491:525 JLINK_ReadMem (0xE0040FD0, 0x0020 Bytes, ...) -- CPU is running -- CPU_ReadMem(32 bytes @ 0xE0040FD0) - Data: 04 00 00 00 00 00 00 00 00 00 00 00 00 00 00 00 ...  returns 0x00 (0000ms, 6577ms total)
T1BFC 4491:526 JLINK_ReadMemU32(0xE00FD008, 0x0001 Items, ...) -- CPU is running -- CPU_ReadMem(4 bytes @ 0xE00FD008) - Data: 02 30 F0 1F  returns 0x01 (0000ms, 6577ms total)
T1BFC 4491:527 JLINK_ReadMemU32(0xE00FD00C, 0x0001 Items, ...) -- CPU is running -- CPU_ReadMem(4 bytes @ 0xE00FD00C) - Data: 02 30 F0 1F  returns 0x01 (0000ms, 6577ms total)
T1BFC 4491:527 JLINK_ReadMemU32(0xE00FD010, 0x0001 Items, ...) -- CPU is running -- CPU_ReadMem(4 bytes @ 0xE00FD010) - Data: 00 00 00 00  returns 0x01 (0001ms, 6578ms total)
T1BFC 4491:529 JLINK_ReadMem (0xE0001000, 0x0004 Bytes, ...) -- CPU is running -- CPU_ReadMem(4 bytes @ 0xE0001000) - Data: 01 00 00 40  returns 0x00 (0000ms, 6578ms total)
T1BFC 4491:530 JLINK_ReadMem (0xE0001000, 0x0004 Bytes, ...) -- CPU is running -- CPU_ReadMem(4 bytes @ 0xE0001000) - Data: 01 00 00 40  returns 0x00 (0000ms, 6578ms total)
T1BFC 4491:531 JLINK_ReadMem (0xE0001028, 0x0004 Bytes, ...) -- CPU is running -- CPU_ReadMem(4 bytes @ 0xE0001028) - Data: 00 00 00 00  returns 0x00 (0000ms, 6578ms total)
T1BFC 4491:532 JLINK_WriteMem(0xE0001028, 0x0004 Bytes, ...) - Data: 00 01 00 00 -- CPU is running -- CPU_WriteMem(4 bytes @ 0xE0001028)  returns 0x04 (0000ms, 6578ms total)
T1BFC 4491:532 JLINK_ReadMem (0xE0001028, 0x0004 Bytes, ...) -- CPU is running -- CPU_ReadMem(4 bytes @ 0xE0001028) - Data: 00 00 00 00  returns 0x00 (0001ms, 6579ms total)
T1BFC 4491:533 JLINK_ReadMem (0xE0001038, 0x0004 Bytes, ...) -- CPU is running -- CPU_ReadMem(4 bytes @ 0xE0001038) - Data: 00 02 00 00  returns 0x00 (0001ms, 6580ms total)
T1BFC 4491:534 JLINK_WriteMem(0xE0001038, 0x0004 Bytes, ...) - Data: 00 03 00 00 -- CPU is running -- CPU_WriteMem(4 bytes @ 0xE0001038)  returns 0x04 (0001ms, 6581ms total)
T1BFC 4491:535 JLINK_ReadMem (0xE0001038, 0x0004 Bytes, ...) -- CPU is running -- CPU_ReadMem(4 bytes @ 0xE0001038) - Data: 00 03 00 00  returns 0x00 (0001ms, 6582ms total)
T1BFC 4491:536 JLINK_ReadMem (0xE0001048, 0x0004 Bytes, ...) -- CPU is running -- CPU_ReadMem(4 bytes @ 0xE0001048) - Data: 00 00 00 00  returns 0x00 (0002ms, 6584ms total)
T1BFC 4491:538 JLINK_WriteMem(0xE0001048, 0x0004 Bytes, ...) - Data: 00 01 00 00 -- CPU is running -- CPU_WriteMem(4 bytes @ 0xE0001048)  returns 0x04 (0001ms, 6585ms total)
T1BFC 4491:539 JLINK_ReadMem (0xE0001048, 0x0004 Bytes, ...) -- CPU is running -- CPU_ReadMem(4 bytes @ 0xE0001048) - Data: 00 00 00 00  returns 0x00 (0001ms, 6586ms total)
T1BFC 4491:540 JLINK_ReadMem (0xE0001058, 0x0004 Bytes, ...) -- CPU is running -- CPU_ReadMem(4 bytes @ 0xE0001058) - Data: 00 00 00 00  returns 0x00 (0001ms, 6587ms total)
T1BFC 4491:541 JLINK_WriteMem(0xE0001058, 0x0004 Bytes, ...) - Data: 00 01 00 00 -- CPU is running -- CPU_WriteMem(4 bytes @ 0xE0001058)  returns 0x04 (0001ms, 6588ms total)
T1BFC 4491:542 JLINK_ReadMem (0xE0001058, 0x0004 Bytes, ...) -- CPU is running -- CPU_ReadMem(4 bytes @ 0xE0001058) - Data: 00 00 00 00  returns 0x00 (0001ms, 6589ms total)
T1BFC 4491:543 JLINK_ReadMem (0xE0001024, 0x0004 Bytes, ...) -- CPU is running -- CPU_ReadMem(4 bytes @ 0xE0001024) - Data: 00 00 00 00  returns 0x00 (0001ms, 6590ms total)
T1BFC 4491:544 JLINK_WriteMem(0xE0001024, 0x0004 Bytes, ...) - Data: 1F 00 00 00 -- CPU is running -- CPU_WriteMem(4 bytes @ 0xE0001024)  returns 0x04 (0001ms, 6591ms total)
T1BFC 4491:545 JLINK_ReadMem (0xE0001024, 0x0004 Bytes, ...) -- CPU is running -- CPU_ReadMem(4 bytes @ 0xE0001024) - Data: 1F 00 00 00  returns 0x00 (0001ms, 6592ms total)
T1BFC 4491:546 JLINK_ReadMem (0xE0001034, 0x0004 Bytes, ...) -- CPU is running -- CPU_ReadMem(4 bytes @ 0xE0001034) - Data: 00 00 00 00  returns 0x00 (0001ms, 6593ms total)
T1BFC 4491:547 JLINK_WriteMem(0xE0001034, 0x0004 Bytes, ...) - Data: 1F 00 00 00 -- CPU is running -- CPU_WriteMem(4 bytes @ 0xE0001034)  returns 0x04 (0001ms, 6594ms total)
T1BFC 4491:548 JLINK_ReadMem (0xE0001034, 0x0004 Bytes, ...) -- CPU is running -- CPU_ReadMem(4 bytes @ 0xE0001034) - Data: 1F 00 00 00  returns 0x00 (0001ms, 6595ms total)
T1BFC 4491:549 JLINK_ReadMem (0xE0001044, 0x0004 Bytes, ...) -- CPU is running -- CPU_ReadMem(4 bytes @ 0xE0001044) - Data: 00 00 00 00  returns 0x00 (0001ms, 6596ms total)
T1BFC 4491:550 JLINK_WriteMem(0xE0001044, 0x0004 Bytes, ...) - Data: 1F 00 00 00 -- CPU is running -- CPU_WriteMem(4 bytes @ 0xE0001044)  returns 0x04 (0001ms, 6597ms total)
T1BFC 4491:551 JLINK_ReadMem (0xE0001044, 0x0004 Bytes, ...) -- CPU is running -- CPU_ReadMem(4 bytes @ 0xE0001044) - Data: 1F 00 00 00  returns 0x00 (0001ms, 6598ms total)
T1BFC 4491:552 JLINK_ReadMem (0xE0001054, 0x0004 Bytes, ...) -- CPU is running -- CPU_ReadMem(4 bytes @ 0xE0001054) - Data: 00 00 00 00  returns 0x00 (0001ms, 6599ms total)
T1BFC 4491:553 JLINK_WriteMem(0xE0001054, 0x0004 Bytes, ...) - Data: 1F 00 00 00 -- CPU is running -- CPU_WriteMem(4 bytes @ 0xE0001054)  returns 0x04 (0001ms, 6600ms total)
T1BFC 4491:554 JLINK_ReadMem (0xE0001054, 0x0004 Bytes, ...) -- CPU is running -- CPU_ReadMem(4 bytes @ 0xE0001054) - Data: 1F 00 00 00  returns 0x00 (0001ms, 6601ms total)
T1BFC 4491:555 JLINK_ReadMem (0xE0001028, 0x0004 Bytes, ...) -- CPU is running -- CPU_ReadMem(4 bytes @ 0xE0001028) - Data: 00 00 00 00  returns 0x00 (0001ms, 6602ms total)
T1BFC 4491:556 JLINK_ReadMem (0xE0001038, 0x0004 Bytes, ...) -- CPU is running -- CPU_ReadMem(4 bytes @ 0xE0001038) - Data: 00 03 00 00  returns 0x00 (0001ms, 6603ms total)
T1BFC 4491:557 JLINK_ReadMem (0xE0001048, 0x0004 Bytes, ...) -- CPU is running -- CPU_ReadMem(4 bytes @ 0xE0001048) - Data: 00 00 00 00  returns 0x00 (0001ms, 6604ms total)
T1BFC 4491:558 JLINK_ReadMem (0xE0001058, 0x0004 Bytes, ...) -- CPU is running -- CPU_ReadMem(4 bytes @ 0xE0001058) - Data: 00 00 00 00  returns 0x00 (0001ms, 6605ms total)
T1BFC 4491:559 JLINK_WriteMem(0xE0001020, 0x0004 Bytes, ...) - Data: 00 00 00 00 -- CPU is running -- CPU_WriteMem(4 bytes @ 0xE0001020)  returns 0x04 (0000ms, 6605ms total)
T1BFC 4491:560 JLINK_WriteMem(0xE0001024, 0x0004 Bytes, ...) - Data: 00 00 00 00 -- CPU is running -- CPU_WriteMem(4 bytes @ 0xE0001024)  returns 0x04 (0001ms, 6606ms total)
T1BFC 4491:561 JLINK_WriteMem(0xE0001028, 0x0004 Bytes, ...) - Data: 00 00 00 00 -- CPU is running -- CPU_WriteMem(4 bytes @ 0xE0001028)  returns 0x04 (0001ms, 6607ms total)
T1BFC 4491:562 JLINK_WriteMem(0xE0001030, 0x0004 Bytes, ...) - Data: 00 00 00 00 -- CPU is running -- CPU_WriteMem(4 bytes @ 0xE0001030)  returns 0x04 (0001ms, 6608ms total)
T1BFC 4491:563 JLINK_WriteMem(0xE0001034, 0x0004 Bytes, ...) - Data: 00 00 00 00 -- CPU is running -- CPU_WriteMem(4 bytes @ 0xE0001034)  returns 0x04 (0001ms, 6609ms total)
T1BFC 4491:564 JLINK_WriteMem(0xE0001038, 0x0004 Bytes, ...) - Data: 00 00 00 00 -- CPU is running -- CPU_WriteMem(4 bytes @ 0xE0001038)  returns 0x04 (0001ms, 6610ms total)
T1BFC 4491:565 JLINK_WriteMem(0xE0001040, 0x0004 Bytes, ...) - Data: 00 00 00 00 -- CPU is running -- CPU_WriteMem(4 bytes @ 0xE0001040)  returns 0x04 (0001ms, 6611ms total)
T1BFC 4491:566 JLINK_WriteMem(0xE0001044, 0x0004 Bytes, ...) - Data: 00 00 00 00 -- CPU is running -- CPU_WriteMem(4 bytes @ 0xE0001044)  returns 0x04 (0001ms, 6612ms total)
T1BFC 4491:567 JLINK_WriteMem(0xE0001048, 0x0004 Bytes, ...) - Data: 00 00 00 00 -- CPU is running -- CPU_WriteMem(4 bytes @ 0xE0001048)  returns 0x04 (0001ms, 6613ms total)
T1BFC 4491:568 JLINK_WriteMem(0xE0001050, 0x0004 Bytes, ...) - Data: 00 00 00 00 -- CPU is running -- CPU_WriteMem(4 bytes @ 0xE0001050)  returns 0x04 (0001ms, 6614ms total)
T1BFC 4491:569 JLINK_WriteMem(0xE0001054, 0x0004 Bytes, ...) - Data: 00 00 00 00 -- CPU is running -- CPU_WriteMem(4 bytes @ 0xE0001054)  returns 0x04 (0000ms, 6614ms total)
T1BFC 4491:570 JLINK_WriteMem(0xE0001058, 0x0004 Bytes, ...) - Data: 00 00 00 00 -- CPU is running -- CPU_WriteMem(4 bytes @ 0xE0001058)  returns 0x04 (0000ms, 6615ms total)
T1BFC 4491:571 JLINK_Halt()  returns 0x00 (0004ms, 6620ms total)
T1BFC 4491:580 JLINK_WriteMem(0x400E0C04, 0x0004 Bytes, ...) - Data: 0B 01 00 5A -- CPU_WriteMem(4 bytes @ 0x400E0C04)  returns 0x04 (0001ms, 6621ms total)
T1BFC 4491:581 JLINK_ReadMem (0x400E0C08, 0x0004 Bytes, ...) -- CPU_ReadMem(4 bytes @ 0x400E0C08) - Data: 01 00 00 00  returns 0x00 (0001ms, 6622ms total)
T1BFC 4491:582 JLINK_Reset() -- CPU_WriteMem(4 bytes @ 0xE000EDF0) -- CPU_WriteMem(4 bytes @ 0xE000EDFC) >0x35 TIF> -- CPU_WriteMem(4 bytes @ 0xE000ED0C) -- CPU_ReadMem(4 bytes @ 0xE000EDF0) -- CPU_ReadMem(4 bytes @ 0xE000EDF0) -- CPU_WriteMem(4 bytes @ 0xE000EDF0) -- CPU_WriteMem(4 bytes @ 0xE000EDFC) -- CPU is running -- CPU_ReadMem(4 bytes @ 0xE000EDF0) -- CPU_WriteMem(4 bytes @ 0xE0002000) -- CPU_ReadMem(4 bytes @ 0xE000EDFC) -- CPU_ReadMem(4 bytes @ 0xE0001000) (0024ms, 6646ms total)
T1BFC 4491:607 JLINK_JTAG_GetDeviceID(DeviceIndex = 0)  returns 0x00 (0000ms, 6646ms total)
T1BFC 4491:607 JLINK_ReadMemU32(0x400E0940, 0x0001 Items, ...) -- CPU_ReadMem(4 bytes @ 0x400E0940) - Data: 00 0E 22 A1  returns 0x01 (0001ms, 6647ms total)
T1BFC 4491:616 JLINK_ReadMemHW(0x0040A000, 0x2000 Bytes, ...) -- CPU_ReadMem(8192 bytes @ 0x0040A000) - Data: 72 B6 83 F3 11 88 BF F3 6F 8F BF F3 4F 8F 62 B6 ...  returns 0x00 (0113ms, 6760ms total)
T1BFC 4491:732 JLINK_BeginDownload(Flags = 0x00) (0000ms, 6760ms total)
T1BFC 4491:732 JLINK_WriteMem(0x00400000, 0x0200 Bytes, ...) - Data: B8 E4 40 20 CD 36 40 00 79 37 40 00 79 37 40 00 ...  returns 0x200 (0001ms, 6761ms total)
T1BFC 4491:733 JLINK_WriteMem(0x00400200, 0x0200 Bytes, ...) - Data: 5A 60 FB 68 9A 68 3B 68 9A 60 FB 68 9B 68 3A 68 ...  returns 0x200 (0000ms, 6761ms total)
T1BFC 4491:733 JLINK_WriteMem(0x00400400, 0x0200 Bytes, ...) - Data: FB 79 DB B2 23 F0 7F 03 DA B2 24 4B 1A 70 24 4B ...  returns 0x200 (0000ms, 6761ms total)
T1BFC 4491:733 JLINK_WriteMem(0x00400600, 0x0200 Bytes, ...) - Data: 00 2B 03 D0 06 4B 4F F0 80 52 1A 60 00 23 7B 60 ...  returns 0x200 (0000ms, 6761ms total)
T1BFC 4491:733 JLINK_WriteMem(0x00400800, 0x0200 Bytes, ...) - Data: 1A 68 1E 4B 1B 68 9A 42 03 D2 19 4B 1A 68 1B 4B ...  returns 0x200 (0000ms, 6761ms total)
T1BFC 4491:733 JLINK_WriteMem(0x00400A00, 0x0200 Bytes, ...) - Data: E4 C0 40 20 EC C0 40 20 E8 C0 40 20 F0 C0 40 20 ...  returns 0x200 (0000ms, 6761ms total)
T1BFC 4491:733 JLINK_WriteMem(0x00400C00, 0x0200 Bytes, ...) - Data: BB 61 BB 68 00 2B 03 D1 BB 69 BA 69 1A 60 04 E0 ...  returns 0x200 (0000ms, 6761ms total)
T1BFC 4491:733 JLINK_WriteMem(0x00400E00, 0x0200 Bytes, ...) - Data: 3B 6B 00 22 5A 64 3B 6B 9B 6C B3 F1 FF 3F 02 D1 ...  returns 0x200 (0000ms, 6761ms total)
T1BFC 4491:733 JLINK_WriteMem(0x00401000, 0x0200 Bytes, ...) - Data: FB 6A 7B 61 7B 69 83 F3 11 88 7B 6B 18 46 38 37 ...  returns 0x200 (0000ms, 6761ms total)
T1BFC 4491:733 JLINK_WriteMem(0x00401200, 0x0200 Bytes, ...) - Data: 15 D1 12 4B 4F F0 80 52 1A 60 BF F3 4F 8F BF F3 ...  returns 0x200 (0000ms, 6761ms total)
T1BFC 4491:733 JLINK_WriteMem(0x00401400, 0x0200 Bytes, ...) - Data: 1A 44 FB 68 DA 60 FB 68 DA 68 FB 68 1B 68 9A 42 ...  returns 0x200 (0000ms, 6761ms total)
T1BFC 4491:733 JLINK_WriteMem(0x00401600, 0x0200 Bytes, ...) - Data: FE E7 7B 68 9A 6B 7B 68 DB 6B 9A 42 02 D1 01 23 ...  returns 0x200 (0000ms, 6761ms total)
T1BFC 4491:733 JLINK_WriteMem(0x00401800, 0x0200 Bytes, ...) - Data: 01 3B 9B 00 13 44 FB 61 FB 69 23 F0 07 03 FB 61 ...  returns 0x200 (0000ms, 6761ms total)
T1BFC 4491:733 JLINK_WriteMem(0x00401A00, 0x0200 Bytes, ...) - Data: 7B 68 1A 68 FB 69 9A 42 03 D8 FA 69 3B 6A 9A 42 ...  returns 0x200 (0000ms, 6761ms total)
T1BFC 4491:733 JLINK_WriteMem(0x00401C00, 0x0200 Bytes, ...) - Data: 02 D3 22 4B 01 22 1A 60 1A 4B 1B 68 00 2B CC D1 ...  returns 0x200 (0000ms, 6761ms total)
T1BFC 4491:733 JLINK_WriteMem(0x00401E00, 0x0200 Bytes, ...) - Data: 1B 68 5A 1C 13 4B 1A 60 13 4B 98 47 13 4B 1B 68 ...  returns 0x200 (0000ms, 6761ms total)
T1BFC 4491:733 JLINK_WriteMem(0x00402000, 0x0200 Bytes, ...) - Data: A5 02 40 00 DC C1 40 20 C0 C1 40 20 ED 01 40 00 ...  returns 0x200 (0000ms, 6761ms total)
T1BFC 4491:733 JLINK_WriteMem(0x00402200, 0x0200 Bytes, ...) - Data: FB 60 FE E7 3B 68 00 2B 0B D1 4F F0 80 03 72 B6 ...  returns 0x200 (0000ms, 6761ms total)
T1BFC 4491:733 JLINK_WriteMem(0x00402400, 0x0200 Bytes, ...) - Data: 95 01 40 00 64 C1 40 20 78 C1 40 20 94 C1 40 20 ...  returns 0x200 (0000ms, 6761ms total)
T1BFC 4491:733 JLINK_WriteMem(0x00402600, 0x0200 Bytes, ...) - Data: F4 C1 40 20 80 B4 83 B0 00 AF 0B 4B 1B 68 00 2B ...  returns 0x200 (0000ms, 6761ms total)
T1BFC 4491:733 JLINK_WriteMem(0x00402800, 0x0200 Bytes, ...) - Data: 9A 40 10 4B 1B 68 1A 43 0E 4B 1A 60 3B 69 DA 6A ...  returns 0x200 (0000ms, 6761ms total)
T1BFC 4491:733 JLINK_WriteMem(0x00402A00, 0x0200 Bytes, ...) - Data: 2C C2 40 20 A5 02 40 00 65 2B 40 00 E9 28 40 00 ...  returns 0x200 (0000ms, 6761ms total)
T1BFC 4491:733 JLINK_WriteMem(0x00402C00, 0x0200 Bytes, ...) - Data: FB 6A 00 2B 0B D1 4F F0 80 03 72 B6 83 F3 11 88 ...  returns 0x200 (0000ms, 6761ms total)
T1BFC 4491:733 JLINK_WriteMem(0x00402E00, 0x0200 Bytes, ...) - Data: BF F3 4F 8F 62 B6 3B 60 FE E7 09 4B 1B 68 1B 68 ...  returns 0x200 (0000ms, 6761ms total)
T1BFC 4491:733 JLINK_WriteMem(0x00403000, 0x0200 Bytes, ...) - Data: 01 2B 04 D0 57 4B 1B 68 5A 1E 56 4B 1A 60 7B 6B ...  returns 0x200 (0000ms, 6761ms total)
T1BFC 4491:733 JLINK_WriteMem(0x00403200, 0x0200 Bytes, ...) - Data: 30 4B 1B 68 18 46 30 4B 98 47 03 46 01 2B 2A D0 ...  returns 0x200 (0000ms, 6761ms total)
T1BFC 4491:733 JLINK_WriteMem(0x00403400, 0x0200 Bytes, ...) - Data: 1B 68 5A 1C 2B 4B 1A 60 26 4B 1A 68 3B 46 10 46 ...  returns 0x200 (0000ms, 6761ms total)
T1BFC 4491:733 JLINK_WriteMem(0x00403600, 0x0200 Bytes, ...) - Data: 03 F0 10 03 00 2B 0C D0 11 4B 98 47 03 46 00 2B ...  returns 0x200 (0000ms, 6761ms total)
T1BFC 4491:733 JLINK_WriteMem(0x00403800, 0x0200 Bytes, ...) - Data: 22 F0 03 02 42 F0 01 02 1A 63 00 BF 17 4B 9B 6E ...  returns 0x200 (0000ms, 6761ms total)
T1BFC 4491:733 JLINK_WriteMem(0x00403A00, 0x0200 Bytes, ...) - Data: FF FF 03 00 01 00 23 03 15 00 44 20 FF FF 01 00 ...  returns 0x200 (0000ms, 6761ms total)
T1BFC 4491:733 JLINK_WriteMem(0x00403C00, 0x0200 Bytes, ...) - Data: C4 AB 40 00 F5 41 40 00 D9 41 40 00 BD 41 40 00 ...  returns 0x200 (0000ms, 6761ms total)
T1BFC 4491:733 JLINK_WriteMem(0x00403E00, 0x0200 Bytes, ...) - Data: 02 E0 FB 68 BA 68 1A 66 FB 68 1B 6F 7B 61 FB 68 ...  returns 0x200 (0000ms, 6761ms total)
T1BFC 4491:733 JLINK_WriteMem(0x00404000, 0x2000 Bytes, ...) - Data: 02 E0 FB 68 BA 68 1A 66 BB 79 00 2B 03 D0 FB 68 ...  returns 0x2000 (0000ms, 6761ms total)
T1BFC 4491:733 JLINK_WriteMem(0x00406000, 0x2000 Bytes, ...) - Data: F6 03 F6 03 F6 03 F6 03 F6 03 F6 03 F6 03 53 03 ...  returns 0x2000 (0000ms, 6761ms total)
T1BFC 4491:733 JLINK_WriteMem(0x00408000, 0x2000 Bytes, ...) - Data: 5B 46 FC F7 67 FE C8 46 4E 46 00 28 7C D0 25 9D ...  returns 0x2000 (0000ms, 6761ms total)
T1BFC 4491:733 JLINK_WriteMem(0x0040A000, 0x2000 Bytes, ...) - Data: 20 46 42 F8 24 50 98 47 28 46 38 BD 16 23 03 60 ...  returns 0x2000 (0000ms, 6761ms total)
T0AC8 4491:752 JLINK_IsHalted()  returns TRUE (0000ms, 6761ms total)
T0AC8 4491:752 JLINK_GetMOEs(...) -- CPU_ReadMem(4 bytes @ 0xE000ED30) -- CPU_WriteMem(4 bytes @ 0xE000ED30)  returns 0x01 (0002ms, 6763ms total)
T0AC8 4491:754 JLINK_ReadReg(R15 (PC)) -- -------------------------------------- -- Start of determining dirty areas in flash cache -- End of determining dirty areas -- Start of preparing flash programming -- Calculating RAM usage -- RAM usage = 5852 Bytes -- Preserving registers -- Preparing memory -- Determining CPU clock frequency -- CPU clock frequency: 11856 kHz -- CPU frequency = 11856 kHz -- Preparing target -- Downloading RAMCode -- Using alternate TurboMode RAMCode -- Checking target RAM
 -- Preparing RAMCode -- End of preparing flash programming -- CPU is running at 120000 kHz. -- Start of comparing flash -- CRC check was estimated as fastest method -- Comparing range 0x400000 - 0x403FFF (2 Sectors, 16 KB), using multi-block CRC calculation -- CRC does not match for sectors 0-1 -- Comparing range 0x404000 - 0x41FFFF (1 Sector, 112 KB), using multi-block CRC calculation -- CRC does not match for sector 0 -- End of comparing flash -- Start of erasing sectors
 -- Erasing range 0x00400000 - 0x00403FFF (002 Sectors, 16 KB) -- Erasing range 0x00404000 - 0x0041FFFF (001 Sector, 112 KB) -- End of erasing sectors -- Start of flash programming -- Programming range 0x00400000 - 0x00403FFF (002 Sectors, 16 KB) -- Programming range 0x00404000 - 0x0041FFFF (001 Sector, 112 KB) -- End of flash programming -- Flash programming performed for 2 ranges (131072 bytes) -- 0x400000 - 0x403FFF (002 Sectors, 16 KB) -- 0x404000 - 0x41FFFF (001 Sector, 112 KB)
 -- Start of verifying flash -- Checksum calculation was estimated as fastest method -- Checksum calculation was estimated as fastest method -- End of verifying flash -- Start of restoring -- Restore RAMCode -- Restore content of target memory -- Restore target -- Restore memory -- Restore content of registers -- End of restoring -- Total time needed: 1.444s (Prepare: 0.127s, Compare: 0.008s, Erase: 0.419s, Program: 0.868s, Verify: 0.005s, Restore: 0.015s)  returns 0x0040BBA0 (1448ms, 8211ms total)
T1BFC 4493:203 JLINK_EndDownload()  returns 0x00 (0000ms, 8212ms total)
T1BFC 4493:204 JLINK_JTAG_GetDeviceID(DeviceIndex = 0)  returns 0x00 (0000ms, 8212ms total)
T1BFC 4493:204 JLINK_ReadMemU32(0x400E0940, 0x0001 Items, ...) -- CPU_ReadMem(4 bytes @ 0x400E0940) - Data: 00 0E 22 A1  returns 0x01 (0001ms, 8213ms total)
T0AC8 4493:221 JLINK_IsHalted()  returns TRUE (0001ms, 8214ms total)
T0CD0 4493:246 JLINK_Halt()  returns 0x00 (0000ms, 8213ms total)
T0CD0 4493:246 JLINK_ReadReg(R15 (PC))  returns 0x0040BBA0 (0000ms, 8213ms total)
T0CD0 4493:246 JLINK_ReadReg(R13 (SP))  returns 0x2040E738 (0000ms, 8213ms total)
T0CD0 4493:249 JLINK_ReadReg(R0)  returns 0x00000000 (0000ms, 8213ms total)
T0CD0 4493:249 JLINK_ReadReg(R1)  returns 0x00000000 (0000ms, 8213ms total)
T0CD0 4493:249 JLINK_ReadReg(R2)  returns 0x00000000 (0000ms, 8213ms total)
T0CD0 4493:249 JLINK_ReadReg(R3)  returns 0x00000000 (0000ms, 8213ms total)
T0CD0 4493:249 JLINK_ReadReg(R4)  returns 0x00000000 (0000ms, 8213ms total)
T0CD0 4493:249 JLINK_ReadReg(R5)  returns 0x00000000 (0000ms, 8213ms total)
T0CD0 4493:249 JLINK_ReadReg(R6)  returns 0x00000000 (0000ms, 8213ms total)
T0CD0 4493:249 JLINK_ReadReg(R7)  returns 0x00000000 (0000ms, 8213ms total)
T0CD0 4493:249 JLINK_ReadReg(R8)  returns 0x00000000 (0000ms, 8213ms total)
T0CD0 4493:249 JLINK_ReadReg(R9)  returns 0x00000000 (0000ms, 8213ms total)
T0CD0 4493:249 JLINK_ReadReg(R10)  returns 0x00000000 (0000ms, 8213ms total)
T0CD0 4493:249 JLINK_ReadReg(R11)  returns 0x00000000 (0000ms, 8213ms total)
T0CD0 4493:249 JLINK_ReadReg(R12)  returns 0x00000000 (0000ms, 8213ms total)
T0CD0 4493:249 JLINK_ReadReg(R13 (SP))  returns 0x2040E738 (0000ms, 8213ms total)
T0CD0 4493:249 JLINK_ReadReg(R14)  returns 0xFFFFFFFF (0000ms, 8213ms total)
T0CD0 4493:249 JLINK_ReadReg(R15 (PC))  returns 0x0040BBA0 (0000ms, 8213ms total)
T0CD0 4493:249 JLINK_ReadReg(XPSR)  returns 0x01000000 (0000ms, 8213ms total)
T0CD0 4493:249 JLINK_ReadReg(MSP)  returns 0x2040E738 (0000ms, 8213ms total)
T0CD0 4493:249 JLINK_ReadReg(PSP)  returns 0x00000000 (0000ms, 8213ms total)
T0CD0 4493:249 JLINK_ReadReg(APSR)  returns 0x00000000 (0000ms, 8213ms total)
T0CD0 4493:249 JLINK_ReadReg(EPSR)  returns 0x01000000 (0000ms, 8213ms total)
T0CD0 4493:249 JLINK_ReadReg(IPSR)  returns 0x00000000 (0000ms, 8213ms total)
T0CD0 4493:249 JLINK_ReadReg(PRIMASK)  returns 0x00000000 (0000ms, 8213ms total)
T0CD0 4493:249 JLINK_ReadReg(BASEPRI)  returns 0x00000000 (0000ms, 8213ms total)
T0CD0 4493:249 JLINK_ReadReg(FAULTMASK)  returns 0x00000000 (0000ms, 8213ms total)
T0CD0 4493:249 JLINK_ReadReg(CONTROL)  returns 0x00000000 (0000ms, 8213ms total)
T0CD0 4493:249 JLINK_ReadReg(FPSCR)  returns 0x00000000 (0007ms, 8220ms total)
T0CD0 4493:257 JLINK_ReadReg(FPS0)  returns 0x00000000 (0000ms, 8220ms total)
T0CD0 4493:257 JLINK_ReadReg(FPS1)  returns 0x00000000 (0000ms, 8220ms total)
T0CD0 4493:257 JLINK_ReadReg(FPS2)  returns 0x00000000 (0000ms, 8220ms total)
T0CD0 4493:257 JLINK_ReadReg(FPS3)  returns 0x00000000 (0000ms, 8220ms total)
T0CD0 4493:257 JLINK_ReadReg(FPS4)  returns 0x00000000 (0000ms, 8220ms total)
T0CD0 4493:257 JLINK_ReadReg(FPS5)  returns 0x00000000 (0000ms, 8220ms total)
T0CD0 4493:257 JLINK_ReadReg(FPS6)  returns 0x00000000 (0000ms, 8220ms total)
T0CD0 4493:257 JLINK_ReadReg(FPS7)  returns 0x00000000 (0000ms, 8220ms total)
T0CD0 4493:257 JLINK_ReadReg(FPS8)  returns 0x00000000 (0000ms, 8220ms total)
T0CD0 4493:257 JLINK_ReadReg(FPS9)  returns 0x00000000 (0000ms, 8220ms total)
T0CD0 4493:257 JLINK_ReadReg(FPS10)  returns 0x00000000 (0000ms, 8220ms total)
T0CD0 4493:257 JLINK_ReadReg(FPS11)  returns 0x00000000 (0000ms, 8220ms total)
T0CD0 4493:257 JLINK_ReadReg(FPS12)  returns 0x00000000 (0000ms, 8220ms total)
T0CD0 4493:257 JLINK_ReadReg(FPS13)  returns 0x00000000 (0000ms, 8220ms total)
T0CD0 4493:257 JLINK_ReadReg(FPS14)  returns 0x00000000 (0000ms, 8220ms total)
T0CD0 4493:257 JLINK_ReadReg(FPS15)  returns 0xFFFFFFFF (0000ms, 8220ms total)
T0CD0 4493:257 JLINK_ReadReg(FPS16)  returns 0x00000000 (0000ms, 8220ms total)
T0CD0 4493:257 JLINK_ReadReg(FPS17)  returns 0x00000000 (0000ms, 8220ms total)
T0CD0 4493:257 JLINK_ReadReg(FPS18)  returns 0x00000000 (0000ms, 8220ms total)
T0CD0 4493:257 JLINK_ReadReg(FPS19)  returns 0x00000000 (0000ms, 8220ms total)
T0CD0 4493:257 JLINK_ReadReg(FPS20)  returns 0x00000000 (0000ms, 8220ms total)
T0CD0 4493:257 JLINK_ReadReg(FPS21)  returns 0x00000000 (0000ms, 8220ms total)
T0CD0 4493:257 JLINK_ReadReg(FPS22)  returns 0x00000000 (0000ms, 8220ms total)
T0CD0 4493:257 JLINK_ReadReg(FPS23)  returns 0x00000000 (0000ms, 8220ms total)
T0CD0 4493:257 JLINK_ReadReg(FPS24)  returns 0x00000000 (0000ms, 8220ms total)
T0CD0 4493:257 JLINK_ReadReg(FPS25)  returns 0x00000000 (0000ms, 8220ms total)
T0CD0 4493:257 JLINK_ReadReg(FPS26)  returns 0x00000000 (0000ms, 8220ms total)
T0CD0 4493:257 JLINK_ReadReg(FPS27)  returns 0x00000000 (0000ms, 8220ms total)
T0CD0 4493:257 JLINK_ReadReg(FPS28)  returns 0x00000000 (0000ms, 8220ms total)
T0CD0 4493:257 JLINK_ReadReg(FPS29)  returns 0x00000000 (0000ms, 8220ms total)
T0CD0 4493:257 JLINK_ReadReg(FPS30)  returns 0x00000000 (0000ms, 8220ms total)
T0CD0 4493:257 JLINK_ReadReg(FPS31)  returns 0xFFFFFFFF (0000ms, 8220ms total)
T0CD0 4493:308 JLINK_ReadReg(R0)  returns 0x00000000 (0000ms, 8220ms total)
T0CD0 4493:308 JLINK_ReadReg(R1)  returns 0x00000000 (0000ms, 8220ms total)
T0CD0 4493:308 JLINK_ReadReg(R2)  returns 0x00000000 (0000ms, 8220ms total)
T0CD0 4493:308 JLINK_ReadReg(R3)  returns 0x00000000 (0000ms, 8220ms total)
T0CD0 4493:308 JLINK_ReadReg(R4)  returns 0x00000000 (0000ms, 8220ms total)
T0CD0 4493:308 JLINK_ReadReg(R5)  returns 0x00000000 (0000ms, 8220ms total)
T0CD0 4493:308 JLINK_ReadReg(R6)  returns 0x00000000 (0000ms, 8220ms total)
T0CD0 4493:308 JLINK_ReadReg(R7)  returns 0x00000000 (0000ms, 8220ms total)
T0CD0 4493:308 JLINK_ReadReg(R8)  returns 0x00000000 (0000ms, 8220ms total)
T0CD0 4493:308 JLINK_ReadReg(R9)  returns 0x00000000 (0000ms, 8220ms total)
T0CD0 4493:308 JLINK_ReadReg(R10)  returns 0x00000000 (0000ms, 8220ms total)
T0CD0 4493:308 JLINK_ReadReg(R11)  returns 0x00000000 (0000ms, 8220ms total)
T0CD0 4493:308 JLINK_ReadReg(R12)  returns 0x00000000 (0000ms, 8220ms total)
T0CD0 4493:308 JLINK_ReadReg(R13 (SP))  returns 0x2040E738 (0000ms, 8220ms total)
T0CD0 4493:308 JLINK_ReadReg(R14)  returns 0xFFFFFFFF (0000ms, 8220ms total)
T0CD0 4493:308 JLINK_ReadReg(R15 (PC))  returns 0x0040BBA0 (0000ms, 8220ms total)
T0CD0 4493:308 JLINK_ReadReg(XPSR)  returns 0x01000000 (0000ms, 8220ms total)
T0CD0 4493:308 JLINK_ReadReg(MSP)  returns 0x2040E738 (0000ms, 8220ms total)
T0CD0 4493:308 JLINK_ReadReg(PSP)  returns 0x00000000 (0000ms, 8220ms total)
T0CD0 4493:308 JLINK_ReadReg(APSR)  returns 0x00000000 (0000ms, 8220ms total)
T0CD0 4493:309 JLINK_ReadReg(EPSR)  returns 0x01000000 (0000ms, 8220ms total)
T0CD0 4493:309 JLINK_ReadReg(IPSR)  returns 0x00000000 (0000ms, 8220ms total)
T0CD0 4493:309 JLINK_ReadReg(PRIMASK)  returns 0x00000000 (0000ms, 8220ms total)
T0CD0 4493:309 JLINK_ReadReg(BASEPRI)  returns 0x00000000 (0000ms, 8220ms total)
T0CD0 4493:309 JLINK_ReadReg(FAULTMASK)  returns 0x00000000 (0000ms, 8220ms total)
T0CD0 4493:309 JLINK_ReadReg(CONTROL)  returns 0x00000000 (0000ms, 8220ms total)
T0CD0 4493:309 JLINK_ReadReg(FPSCR)  returns 0x00000000 (0000ms, 8220ms total)
T0CD0 4493:309 JLINK_ReadReg(FPS0)  returns 0x00000000 (0000ms, 8220ms total)
T0CD0 4493:309 JLINK_ReadReg(FPS1)  returns 0x00000000 (0000ms, 8220ms total)
T0CD0 4493:309 JLINK_ReadReg(FPS2)  returns 0x00000000 (0000ms, 8220ms total)
T0CD0 4493:309 JLINK_ReadReg(FPS3)  returns 0x00000000 (0000ms, 8220ms total)
T0CD0 4493:309 JLINK_ReadReg(FPS4)  returns 0x00000000 (0000ms, 8220ms total)
T0CD0 4493:309 JLINK_ReadReg(FPS5)  returns 0x00000000 (0000ms, 8220ms total)
T0CD0 4493:309 JLINK_ReadReg(FPS6)  returns 0x00000000 (0000ms, 8220ms total)
T0CD0 4493:309 JLINK_ReadReg(FPS7)  returns 0x00000000 (0000ms, 8220ms total)
T0CD0 4493:309 JLINK_ReadReg(FPS8)  returns 0x00000000 (0000ms, 8220ms total)
T0CD0 4493:309 JLINK_ReadReg(FPS9)  returns 0x00000000 (0000ms, 8220ms total)
T0CD0 4493:309 JLINK_ReadReg(FPS10)  returns 0x00000000 (0000ms, 8220ms total)
T0CD0 4493:309 JLINK_ReadReg(FPS11)  returns 0x00000000 (0000ms, 8220ms total)
T0CD0 4493:309 JLINK_ReadReg(FPS12)  returns 0x00000000 (0000ms, 8220ms total)
T0CD0 4493:309 JLINK_ReadReg(FPS13)  returns 0x00000000 (0000ms, 8220ms total)
T0CD0 4493:309 JLINK_ReadReg(FPS14)  returns 0x00000000 (0000ms, 8220ms total)
T0CD0 4493:309 JLINK_ReadReg(FPS15)  returns 0xFFFFFFFF (0000ms, 8220ms total)
T0CD0 4493:309 JLINK_ReadReg(FPS16)  returns 0x00000000 (0000ms, 8220ms total)
T0CD0 4493:309 JLINK_ReadReg(FPS17)  returns 0x00000000 (0000ms, 8220ms total)
T0CD0 4493:309 JLINK_ReadReg(FPS18)  returns 0x00000000 (0000ms, 8220ms total)
T0CD0 4493:309 JLINK_ReadReg(FPS19)  returns 0x00000000 (0000ms, 8220ms total)
T0CD0 4493:309 JLINK_ReadReg(FPS20)  returns 0x00000000 (0000ms, 8220ms total)
T0CD0 4493:309 JLINK_ReadReg(FPS21)  returns 0x00000000 (0000ms, 8220ms total)
T0CD0 4493:309 JLINK_ReadReg(FPS22)  returns 0x00000000 (0000ms, 8220ms total)
T0CD0 4493:309 JLINK_ReadReg(FPS23)  returns 0x00000000 (0000ms, 8220ms total)
T0CD0 4493:309 JLINK_ReadReg(FPS24)  returns 0x00000000 (0000ms, 8220ms total)
T0CD0 4493:309 JLINK_ReadReg(FPS25)  returns 0x00000000 (0000ms, 8220ms total)
T0CD0 4493:309 JLINK_ReadReg(FPS26)  returns 0x00000000 (0000ms, 8220ms total)
T0CD0 4493:309 JLINK_ReadReg(FPS27)  returns 0x00000000 (0000ms, 8220ms total)
T0CD0 4493:309 JLINK_ReadReg(FPS28)  returns 0x00000000 (0000ms, 8220ms total)
T0CD0 4493:309 JLINK_ReadReg(FPS29)  returns 0x00000000 (0000ms, 8220ms total)
T0CD0 4493:309 JLINK_ReadReg(FPS30)  returns 0x00000000 (0000ms, 8220ms total)
T0CD0 4493:309 JLINK_ReadReg(FPS31)  returns 0xFFFFFFFF (0000ms, 8220ms total)
T0CD0 4493:330 JLINK_ReadReg(R15 (PC))  returns 0x0040BBA0 (0000ms, 8220ms total)
T0CD0 4493:330 JLINK_Reset() -- CPU_WriteMem(4 bytes @ 0xE000EDF0) -- CPU_WriteMem(4 bytes @ 0xE000EDFC) >0x35 TIF> -- CPU_WriteMem(4 bytes @ 0xE000ED0C) -- CPU_ReadMem(4 bytes @ 0xE000EDF0) -- CPU_ReadMem(4 bytes @ 0xE000EDF0) -- CPU_WriteMem(4 bytes @ 0xE000EDF0) -- CPU_WriteMem(4 bytes @ 0xE000EDFC) -- CPU is running -- CPU_ReadMem(4 bytes @ 0xE000EDF0) -- CPU_WriteMem(4 bytes @ 0xE0002000) -- CPU_ReadMem(4 bytes @ 0xE000EDFC) -- CPU_ReadMem(4 bytes @ 0xE0001000) (0024ms, 8244ms total)
T0AC8 4493:354 JLINK_IsHalted()  returns TRUE (0000ms, 8244ms total)
T0AC8 4493:354 JLINK_GetMOEs(...) -- CPU_ReadMem(4 bytes @ 0xE000ED30) -- CPU_WriteMem(4 bytes @ 0xE000ED30)  returns 0x01 (0002ms, 8246ms total)
T0AC8 4493:356 JLINK_ReadReg(R15 (PC))  returns 0x004036CC (0000ms, 8246ms total)
T0CD0 4493:364 JLINK_ReadReg(R15 (PC))  returns 0x004036CC (0000ms, 8246ms total)
T0CD0 4493:364 JLINK_ReadReg(R13 (SP))  returns 0x2040E4B8 (0000ms, 8246ms total)
T0CD0 4493:402 JLINK_ReadReg(R0)  returns 0x00000000 (0000ms, 8246ms total)
T0CD0 4493:402 JLINK_ReadReg(R1)  returns 0x00000000 (0000ms, 8246ms total)
T0CD0 4493:402 JLINK_ReadReg(R2)  returns 0x00000000 (0000ms, 8246ms total)
T0CD0 4493:402 JLINK_ReadReg(R3)  returns 0x00000000 (0000ms, 8246ms total)
T0CD0 4493:402 JLINK_ReadReg(R4)  returns 0x00000000 (0000ms, 8246ms total)
T0CD0 4493:402 JLINK_ReadReg(R5)  returns 0x00000000 (0000ms, 8246ms total)
T0CD0 4493:402 JLINK_ReadReg(R6)  returns 0x00000000 (0000ms, 8246ms total)
T0CD0 4493:402 JLINK_ReadReg(R7)  returns 0x00000000 (0000ms, 8246ms total)
T0CD0 4493:402 JLINK_ReadReg(R8)  returns 0x00000000 (0000ms, 8246ms total)
T0CD0 4493:402 JLINK_ReadReg(R9)  returns 0x00000000 (0000ms, 8246ms total)
T0CD0 4493:402 JLINK_ReadReg(R10)  returns 0x00000000 (0000ms, 8246ms total)
T0CD0 4493:402 JLINK_ReadReg(R11)  returns 0x00000000 (0000ms, 8246ms total)
T0CD0 4493:402 JLINK_ReadReg(R12)  returns 0x00000000 (0000ms, 8246ms total)
T0CD0 4493:402 JLINK_ReadReg(R13 (SP))  returns 0x2040E4B8 (0000ms, 8246ms total)
T0CD0 4493:402 JLINK_ReadReg(R14)  returns 0xFFFFFFFF (0000ms, 8246ms total)
T0CD0 4493:402 JLINK_ReadReg(R15 (PC))  returns 0x004036CC (0000ms, 8246ms total)
T0CD0 4493:402 JLINK_ReadReg(XPSR)  returns 0x01000000 (0000ms, 8246ms total)
T0CD0 4493:402 JLINK_ReadReg(MSP)  returns 0x2040E4B8 (0000ms, 8246ms total)
T0CD0 4493:402 JLINK_ReadReg(PSP)  returns 0x00000000 (0000ms, 8246ms total)
T0CD0 4493:402 JLINK_ReadReg(APSR)  returns 0x00000000 (0000ms, 8246ms total)
T0CD0 4493:402 JLINK_ReadReg(EPSR)  returns 0x01000000 (0000ms, 8246ms total)
T0CD0 4493:402 JLINK_ReadReg(IPSR)  returns 0x00000000 (0000ms, 8246ms total)
T0CD0 4493:402 JLINK_ReadReg(PRIMASK)  returns 0x00000000 (0000ms, 8246ms total)
T0CD0 4493:402 JLINK_ReadReg(BASEPRI)  returns 0x00000000 (0000ms, 8246ms total)
T0CD0 4493:402 JLINK_ReadReg(FAULTMASK)  returns 0x00000000 (0000ms, 8246ms total)
T0CD0 4493:402 JLINK_ReadReg(CONTROL)  returns 0x00000000 (0000ms, 8246ms total)
T0CD0 4493:402 JLINK_ReadReg(FPSCR)  returns 0x00000000 (0007ms, 8253ms total)
T0CD0 4493:409 JLINK_ReadReg(FPS0)  returns 0x00000000 (0000ms, 8253ms total)
T0CD0 4493:409 JLINK_ReadReg(FPS1)  returns 0x00000000 (0000ms, 8253ms total)
T0CD0 4493:409 JLINK_ReadReg(FPS2)  returns 0x00000000 (0000ms, 8253ms total)
T0CD0 4493:409 JLINK_ReadReg(FPS3)  returns 0x00000000 (0000ms, 8253ms total)
T0CD0 4493:409 JLINK_ReadReg(FPS4)  returns 0x00000000 (0000ms, 8253ms total)
T0CD0 4493:409 JLINK_ReadReg(FPS5)  returns 0x00000000 (0000ms, 8253ms total)
T0CD0 4493:409 JLINK_ReadReg(FPS6)  returns 0x00000000 (0000ms, 8253ms total)
T0CD0 4493:409 JLINK_ReadReg(FPS7)  returns 0x00000000 (0000ms, 8253ms total)
T0CD0 4493:409 JLINK_ReadReg(FPS8)  returns 0x00000000 (0000ms, 8253ms total)
T0CD0 4493:409 JLINK_ReadReg(FPS9)  returns 0x00000000 (0000ms, 8253ms total)
T0CD0 4493:409 JLINK_ReadReg(FPS10)  returns 0x00000000 (0000ms, 8253ms total)
T0CD0 4493:409 JLINK_ReadReg(FPS11)  returns 0x00000000 (0000ms, 8253ms total)
T0CD0 4493:409 JLINK_ReadReg(FPS12)  returns 0x00000000 (0000ms, 8253ms total)
T0CD0 4493:409 JLINK_ReadReg(FPS13)  returns 0x00000000 (0000ms, 8253ms total)
T0CD0 4493:409 JLINK_ReadReg(FPS14)  returns 0x00000000 (0000ms, 8253ms total)
T0CD0 4493:409 JLINK_ReadReg(FPS15)  returns 0xFFFFFFFF (0000ms, 8253ms total)
T0CD0 4493:409 JLINK_ReadReg(FPS16)  returns 0x00000000 (0000ms, 8253ms total)
T0CD0 4493:409 JLINK_ReadReg(FPS17)  returns 0x00000000 (0000ms, 8253ms total)
T0CD0 4493:409 JLINK_ReadReg(FPS18)  returns 0x00000000 (0000ms, 8253ms total)
T0CD0 4493:409 JLINK_ReadReg(FPS19)  returns 0x00000000 (0000ms, 8253ms total)
T0CD0 4493:409 JLINK_ReadReg(FPS20)  returns 0x00000000 (0000ms, 8253ms total)
T0CD0 4493:409 JLINK_ReadReg(FPS21)  returns 0x00000000 (0000ms, 8253ms total)
T0CD0 4493:409 JLINK_ReadReg(FPS22)  returns 0x00000000 (0000ms, 8253ms total)
T0CD0 4493:409 JLINK_ReadReg(FPS23)  returns 0x00000000 (0000ms, 8253ms total)
T0CD0 4493:409 JLINK_ReadReg(FPS24)  returns 0x00000000 (0000ms, 8253ms total)
T0CD0 4493:409 JLINK_ReadReg(FPS25)  returns 0x00000000 (0000ms, 8253ms total)
T0CD0 4493:409 JLINK_ReadReg(FPS26)  returns 0x00000000 (0000ms, 8253ms total)
T0CD0 4493:409 JLINK_ReadReg(FPS27)  returns 0x00000000 (0000ms, 8253ms total)
T0CD0 4493:409 JLINK_ReadReg(FPS28)  returns 0x00000000 (0000ms, 8253ms total)
T0CD0 4493:409 JLINK_ReadReg(FPS29)  returns 0x00000000 (0000ms, 8253ms total)
T0CD0 4493:409 JLINK_ReadReg(FPS30)  returns 0x00000000 (0000ms, 8253ms total)
T0CD0 4493:409 JLINK_ReadReg(FPS31)  returns 0xFFFFFFFF (0000ms, 8253ms total)
T0CD0 4493:470 JLINK_ReadReg(R15 (PC))  returns 0x004036CC (0000ms, 8253ms total)
T0CD0 4493:470 JLINK_GetNumBPUnits(Type = 0xFFFFFF02)  returns 0x08 (0000ms, 8253ms total)
T0CD0 4493:470 JLINK_SetBPEx(Addr = 0x004043AC, Type = 0xFFFFFF02)  returns 0x00000001 (0000ms, 8253ms total)
T0CD0 4493:470 JLINK_GetBPInfo(BPHandle = 1)  returns 0x00 (0000ms, 8253ms total)
T0CD0 4493:470 JLINK_Go() -- CPU_WriteMem(4 bytes @ 0xE0002000) -- CPU_ReadMem(4 bytes @ 0xE0001000) -- CPU_WriteMem(4 bytes @ 0xE0002008) -- CPU_WriteMem(4 bytes @ 0xE000200C) -- CPU_WriteMem(4 bytes @ 0xE0002010) -- CPU_WriteMem(4 bytes @ 0xE0002014) -- CPU_WriteMem(4 bytes @ 0xE0002018) -- CPU_WriteMem(4 bytes @ 0xE000201C) -- CPU_WriteMem(4 bytes @ 0xE0002020) -- CPU_WriteMem(4 bytes @ 0xE0002024) -- CPU_WriteMem(4 bytes @ 0xE0001004) (0008ms, 8261ms total)
T0AC8 4493:478 JLINK_IsHalted()  returns FALSE (0001ms, 8262ms total)
T0AC8 4493:503 JLINK_IsHalted()  returns TRUE (0006ms, 8267ms total)
T0AC8 4493:509 JLINK_GetMOEs(...) -- CPU_ReadMem(4 bytes @ 0xE000ED30) -- CPU_WriteMem(4 bytes @ 0xE000ED30)  returns 0x01 (0002ms, 8263ms total)
T0AC8 4493:511 JLINK_ReadReg(R15 (PC))  returns 0x004043AC (0000ms, 8263ms total)
T0AC8 4493:511 JLINK_GetBPInfo(BPHandle = 1)  returns 0x00 (0000ms, 8263ms total)
T0AC8 4493:511 JLINK_ClrBPEx(BPHandle = 0x00000001)  returns 0x00 (0000ms, 8263ms total)
T0CD0 4493:518 JLINK_ReadReg(R15 (PC))  returns 0x004043AC (0000ms, 8263ms total)
T0CD0 4493:518 JLINK_ReadReg(R13 (SP))  returns 0x2040E4A8 (0000ms, 8263ms total)
T1BFC 4493:664 JLINK_GetDebugInfo(0x100) -- Value=0xE00FD003  returns 0x00 (0000ms, 8263ms total)
T1BFC 4493:664 JLINK_ReadMem (0xE00FDFF0, 0x0010 Bytes, ...) -- CPU_ReadMem(16 bytes @ 0xE00FDFF0) - Data: 0D 00 00 00 10 00 00 00 05 00 00 00 B1 00 00 00  returns 0x00 (0001ms, 8264ms total)
T1BFC 4493:665 JLINK_ReadMem (0xE00FDFD0, 0x0020 Bytes, ...) -- CPU_ReadMem(32 bytes @ 0xE00FDFD0) - Data: 00 00 00 00 00 00 00 00 00 00 00 00 00 00 00 00 ...  returns 0x00 (0001ms, 8265ms total)
T1BFC 4493:666 JLINK_ReadMemU32(0xE00FD000, 0x0001 Items, ...) -- CPU_ReadMem(4 bytes @ 0xE00FD000) - Data: 03 10 00 00  returns 0x01 (0001ms, 8266ms total)
T1BFC 4493:667 JLINK_ReadMem (0xE00FEFF0, 0x0010 Bytes, ...) -- CPU_ReadMem(16 bytes @ 0xE00FEFF0) - Data: 0D 00 00 00 10 00 00 00 05 00 00 00 B1 00 00 00  returns 0x00 (0001ms, 8267ms total)
T1BFC 4493:668 JLINK_ReadMem (0xE00FEFD0, 0x0020 Bytes, ...) -- CPU_ReadMem(32 bytes @ 0xE00FEFD0) - Data: 04 00 00 00 00 00 00 00 00 00 00 00 00 00 00 00 ...  returns 0x00 (0001ms, 8268ms total)
T1BFC 4493:669 JLINK_ReadMemU32(0xE00FE000, 0x0001 Items, ...) -- CPU_ReadMem(4 bytes @ 0xE00FE000) - Data: 03 10 00 00  returns 0x01 (0001ms, 8269ms total)
T1BFC 4493:670 JLINK_ReadMem (0xE00FFFF0, 0x0010 Bytes, ...) -- CPU_ReadMem(16 bytes @ 0xE00FFFF0) - Data: 0D 00 00 00 10 00 00 00 05 00 00 00 B1 00 00 00  returns 0x00 (0001ms, 8270ms total)
T1BFC 4493:671 JLINK_ReadMem (0xE00FFFD0, 0x0020 Bytes, ...) -- CPU_ReadMem(32 bytes @ 0xE00FFFD0) - Data: 04 00 00 00 00 00 00 00 00 00 00 00 00 00 00 00 ...  returns 0x00 (0001ms, 8271ms total)
T1BFC 4493:672 JLINK_ReadMemU32(0xE00FF000, 0x0001 Items, ...) -- CPU_ReadMem(4 bytes @ 0xE00FF000) - Data: 03 F0 F0 FF  returns 0x01 (0001ms, 8272ms total)
T1BFC 4493:673 JLINK_ReadMem (0xE000EFF0, 0x0010 Bytes, ...) -- CPU_ReadMem(16 bytes @ 0xE000EFF0) - Data: 0D 00 00 00 E0 00 00 00 05 00 00 00 B1 00 00 00  returns 0x00 (0001ms, 8273ms total)
T1BFC 4493:674 JLINK_ReadMem (0xE000EFD0, 0x0020 Bytes, ...) -- CPU_ReadMem(32 bytes @ 0xE000EFD0) - Data: 04 00 00 00 00 00 00 00 00 00 00 00 00 00 00 00 ...  returns 0x00 (0001ms, 8274ms total)
T1BFC 4493:675 JLINK_ReadMemU32(0xE00FF004, 0x0001 Items, ...) -- CPU_ReadMem(4 bytes @ 0xE00FF004) - Data: 03 20 F0 FF  returns 0x01 (0001ms, 8275ms total)
T1BFC 4493:676 JLINK_ReadMem (0xE0001FF0, 0x0010 Bytes, ...) -- CPU_ReadMem(16 bytes @ 0xE0001FF0) - Data: 0D 00 00 00 E0 00 00 00 05 00 00 00 B1 00 00 00  returns 0x00 (0001ms, 8276ms total)
T1BFC 4493:677 JLINK_ReadMem (0xE0001FD0, 0x0020 Bytes, ...) -- CPU_ReadMem(32 bytes @ 0xE0001FD0) - Data: 04 00 00 00 00 00 00 00 00 00 00 00 00 00 00 00 ...  returns 0x00 (0001ms, 8277ms total)
T1BFC 4493:678 JLINK_ReadMemU32(0xE00FF008, 0x0001 Items, ...) -- CPU_ReadMem(4 bytes @ 0xE00FF008) - Data: 03 30 F0 FF  returns 0x01 (0001ms, 8278ms total)
T1BFC 4493:679 JLINK_ReadMem (0xE0002FF0, 0x0010 Bytes, ...) -- CPU_ReadMem(16 bytes @ 0xE0002FF0) - Data: 0D 00 00 00 E0 00 00 00 05 00 00 00 B1 00 00 00  returns 0x00 (0001ms, 8279ms total)
T1BFC 4493:680 JLINK_ReadMem (0xE0002FD0, 0x0020 Bytes, ...) -- CPU_ReadMem(32 bytes @ 0xE0002FD0) - Data: 04 00 00 00 00 00 00 00 00 00 00 00 00 00 00 00 ...  returns 0x00 (0001ms, 8280ms total)
T1BFC 4493:681 JLINK_ReadMemU32(0xE00FF00C, 0x0001 Items, ...) -- CPU_ReadMem(4 bytes @ 0xE00FF00C) - Data: 03 10 F0 FF  returns 0x01 (0001ms, 8281ms total)
T1BFC 4493:682 JLINK_ReadMem (0xE0000FF0, 0x0010 Bytes, ...) -- CPU_ReadMem(16 bytes @ 0xE0000FF0) - Data: 0D 00 00 00 E0 00 00 00 05 00 00 00 B1 00 00 00  returns 0x00 (0001ms, 8282ms total)
T1BFC 4493:683 JLINK_ReadMem (0xE0000FD0, 0x0020 Bytes, ...) -- CPU_ReadMem(32 bytes @ 0xE0000FD0) - Data: 04 00 00 00 00 00 00 00 00 00 00 00 00 00 00 00 ...  returns 0x00 (0001ms, 8283ms total)
T1BFC 4493:684 JLINK_ReadMemU32(0xE00FF010, 0x0001 Items, ...) -- CPU_ReadMem(4 bytes @ 0xE00FF010) - Data: 02 10 F4 FF  returns 0x01 (0001ms, 8284ms total)
T1BFC 4493:685 JLINK_ReadMemU32(0xE00FF014, 0x0001 Items, ...) -- CPU_ReadMem(4 bytes @ 0xE00FF014) - Data: 02 20 F4 FF  returns 0x01 (0001ms, 8285ms total)
T1BFC 4493:686 JLINK_ReadMemU32(0xE00FF018, 0x0001 Items, ...) -- CPU_ReadMem(4 bytes @ 0xE00FF018) - Data: 00 00 00 00  returns 0x01 (0001ms, 8286ms total)
T1BFC 4493:687 JLINK_ReadMemU32(0xE00FE004, 0x0001 Items, ...) -- CPU_ReadMem(4 bytes @ 0xE00FE004) - Data: 03 30 F4 FF  returns 0x01 (0001ms, 8287ms total)
T1BFC 4493:688 JLINK_ReadMem (0xE0041FF0, 0x0010 Bytes, ...) -- CPU_ReadMem(16 bytes @ 0xE0041FF0) - Data: 0D 00 00 00 90 00 00 00 05 00 00 00 B1 00 00 00  returns 0x00 (0001ms, 8288ms total)
T1BFC 4493:689 JLINK_ReadMem (0xE0041FD0, 0x0020 Bytes, ...) -- CPU_ReadMem(32 bytes @ 0xE0041FD0) - Data: 04 00 00 00 00 00 00 00 00 00 00 00 00 00 00 00 ...  returns 0x00 (0001ms, 8289ms total)
T1BFC 4493:690 JLINK_ReadMemU32(0xE00FE008, 0x0001 Items, ...) -- CPU_ReadMem(4 bytes @ 0xE00FE008) - Data: 02 40 F4 FF  returns 0x01 (0001ms, 8290ms total)
T1BFC 4493:691 JLINK_ReadMemU32(0xE00FE00C, 0x0001 Items, ...) -- CPU_ReadMem(4 bytes @ 0xE00FE00C) - Data: 02 20 F0 1F  returns 0x01 (0001ms, 8291ms total)
